
T1F58 000:035 SEGGER J-Link V6.10i Log File (0001ms, 0016ms total)
T1F58 000:035 DLL Compiled: Oct 25 2016 19:31:51 (0001ms, 0016ms total)
T1F58 000:035 Logging started @ 2018-05-03 13:53 (0001ms, 0016ms total)
T1F58 000:036 JLINK_SetWarnOutHandler(...) (0000ms, 0016ms total)
T1F58 000:036 JLINK_OpenEx(...)
Firmware: J-Link Lite-XMC4200 Rev.1 compiled Jan 14 2016 11:19:27
Hardware: V1.00
S/N: 591039674WEBSRV Webserver running on local port 19080 (0009ms, 0025ms total)
T1F58 000:036   returns O.K. (0009ms, 0025ms total)
T1F58 000:045 JLINK_SetErrorOutHandler(...) (0000ms, 0025ms total)
T1F58 000:045 JLINK_ExecCommand("ProjectFile = "C:\Users\wxt\Desktop\doughmaker0427\JLinkSettings.ini"", ...).   returns 0x00 (0109ms, 0134ms total)
T1F58 000:157 JLINK_ExecCommand("Device = XMC1100-Q024x0064", ...). Device "XMC1100-0064" selected.  returns 0x00 (0004ms, 0138ms total)
T1F58 000:161 JLINK_ExecCommand("DisableConnectionTimeout", ...).   returns 0x01 (0000ms, 0138ms total)
T1F58 000:161 JLINK_GetHardwareVersion()  returns 0x2710 (0000ms, 0138ms total)
T1F58 000:161 JLINK_GetDLLVersion()  returns 61009 (0000ms, 0138ms total)
T1F58 000:161 JLINK_GetFirmwareString(...) (0000ms, 0138ms total)
T1F58 000:167 JLINK_GetDLLVersion()  returns 61009 (0000ms, 0138ms total)
T1F58 000:167 JLINK_GetCompileDateTime() (0000ms, 0138ms total)
T1F58 000:169 JLINK_GetFirmwareString(...) (0000ms, 0138ms total)
T1F58 000:171 JLINK_GetHardwareVersion()  returns 0x2710 (0000ms, 0138ms total)
T1F58 000:178 JLINK_TIF_Select(JLINKARM_TIF_SWD)  returns 0x00 (0001ms, 0139ms total)
T1F58 000:179 JLINK_SetSpeed(500) (0000ms, 0139ms total)
T1F58 000:179 JLINK_GetId()Performing XMC1000 connection sequence.Firmware of connected J-Link (S/N 591039674) is too old and does not support connect for this device. Debugging may not be reliableTrying to identify target via SPD >0x108 TIF>Could not identify target via SPD. Trying again via SWD. >0x108 TIF>Found SWD-DP with ID 0x0BB11477 >0x0D TIF> >0x28 TIF> >0x0D TIF> >0x28 TIF> >0x0D TIF> >0x28 TIF> >0x0D TIF> >0x28 TIF> >0x0D TIF> >0x21 TIF> >0x0D TIF> >0x28 TIF> >0x0D TIF> >0x28 TIF> >0x0D TIF>
 >0x21 TIF> >0x0D TIF> >0x21 TIF> >0x0D TIF> >0x21 TIF>AP-IDR: 0x04770021, Type: AHB-AP >0x0D TIF> >0x28 TIF> >0x0D TIF> >0x28 TIF> >0x0D TIF> >0x28 TIF> >0x0D TIF> >0x21 TIF> >0x0D TIF> >0x21 TIF> >0x0D TIF> >0x28 TIF> >0x0D TIF> >0x21 TIF> >0x0D TIF> >0x21 TIF>Found Cortex-M0 r0p0, Little endian. -- CPU_ReadMem(4 bytes @ 0xE000EDF0) -- CPU_WriteMem(4 bytes @ 0xE000EDF0) -- CPU_ReadMem(4 bytes @ 0xE0002000)FPUnit: 4 code (BP) slots and 0 literal slots -- CPU_ReadMem(4 bytes @ 0xE000EDFC)
 -- CPU_WriteMem(4 bytes @ 0xE000EDFC) -- CPU_ReadMem(4 bytes @ 0xE0001000) -- CPU_WriteMem(4 bytes @ 0xE0001000)CoreSight components:ROMTbl 0 @ F0000000 -- CPU_ReadMem(16 bytes @ 0xF0000000) -- CPU_ReadMem(16 bytes @ 0xE00FFFF0) -- CPU_ReadMem(16 bytes @ 0xE00FFFE0)ROMTbl 0 [0]: F00FF000, CID: B105100D, PID: 000BB471 ROM TableROMTbl 1 @ E00FF000 -- CPU_ReadMem(16 bytes @ 0xE00FF000) -- CPU_ReadMem(16 bytes @ 0xE000EFF0) -- CPU_ReadMem(16 bytes @ 0xE000EFE0)
ROMTbl 1 [0]: FFF0F000, CID: B105E00D, PID: 000BB008 SCS -- CPU_ReadMem(16 bytes @ 0xE0001FF0) -- CPU_ReadMem(16 bytes @ 0xE0001FE0)ROMTbl 1 [1]: FFF02000, CID: B105E00D, PID: 000BB00A DWT -- CPU_ReadMem(16 bytes @ 0xE0002FF0) -- CPU_ReadMem(16 bytes @ 0xE0002FE0)ROMTbl 1 [2]: FFF03000, CID: B105E00D, PID: 000BB00B FPB >0x0D TIF> >0x21 TIF>  returns 0x0BB11477 (0067ms, 0206ms total)
T1F58 000:246 JLINK_GetDLLVersion()  returns 61009 (0000ms, 0206ms total)
T1F58 000:246 JLINK_CORE_GetFound()  returns 0x60000FF (0000ms, 0206ms total)
T1F58 000:246 JLINK_GetDebugInfo(0x100) -- Value=0xF0000000  returns 0x00 (0000ms, 0206ms total)
T1F58 000:248 JLINK_GetDebugInfo(0x100) -- Value=0xF0000000  returns 0x00 (0000ms, 0206ms total)
T1F58 000:248 JLINK_GetDebugInfo(0x101) -- Value=0x00000000  returns 0x00 (0000ms, 0206ms total)
T1F58 000:248 JLINK_ReadMem (0xE0041FF0, 0x0010 Bytes, ...) -- CPU is running -- CPU_ReadMem(16 bytes @ 0xE0041FF0) - Data: 00 00 00 00 00 00 00 00 00 00 00 00 00 00 00 00  returns 0x00 (0002ms, 0208ms total)
T1F58 000:250 JLINK_GetDebugInfo(0x102) -- Value=0x00000000  returns 0x00 (0000ms, 0208ms total)
T1F58 000:250 JLINK_GetDebugInfo(0x103) -- Value=0x00000000  returns 0x00 (0000ms, 0208ms total)
T1F58 000:250 JLINK_ReadMem (0xE0040FF0, 0x0010 Bytes, ...) -- CPU is running -- CPU_ReadMem(16 bytes @ 0xE0040FF0) - Data: 00 00 00 00 00 00 00 00 00 00 00 00 00 00 00 00  returns 0x00 (0001ms, 0209ms total)
T1F58 000:251 JLINK_GetDebugInfo(0x104) -- Value=0xE0000000  returns 0x00 (0000ms, 0209ms total)
T1F58 000:251 JLINK_GetDebugInfo(0x105) -- Value=0xE0001000  returns 0x00 (0000ms, 0209ms total)
T1F58 000:251 JLINK_GetDebugInfo(0x106) -- Value=0xE0002000  returns 0x00 (0000ms, 0209ms total)
T1F58 000:251 JLINK_GetDebugInfo(0x107) -- Value=0xE000E000  returns 0x00 (0000ms, 0209ms total)
T1F58 000:251 JLINK_GetDebugInfo(0x10C) -- Value=0xE000EDF0  returns 0x00 (0000ms, 0209ms total)
T1F58 000:251 JLINK_ReadMemU32(0xE000ED00, 0x0001 Items, ...) -- CPU is running -- CPU_ReadMem(4 bytes @ 0xE000ED00) - Data: 00 C2 0C 41  returns 0x01 (0001ms, 0210ms total)
T1F58 000:252 JLINK_SetResetType(JLINKARM_RESET_TYPE_NORMAL)  returns JLINKARM_RESET_TYPE_NORMAL (0000ms, 0210ms total)
T1F58 000:252 JLINK_Reset()Performing XMC1000 reset -- CPU_ReadMem(4 bytes @ 0x10001004) -- CPU_WriteMem(4 bytes @ 0xE0002000) -- CPU_ReadMem(4 bytes @ 0xE0002008) -- CPU_WriteMem(4 bytes @ 0xE0002008) -- CPU_WriteMem(4 bytes @ 0xE000ED0C) -- CPU is running -- CPU_WriteMem(4 bytes @ 0xE0002008) -- CPU_WriteMem(4 bytes @ 0xE0002000) -- CPU_ReadMem(4 bytes @ 0xE000EDFC) -- CPU_ReadMem(4 bytes @ 0xE0001000) -- CPU_WriteMem(4 bytes @ 0xE0001000) (0054ms, 0264ms total)
T1F58 000:307 JLINK_Halt()  returns 0x00 (0000ms, 0264ms total)
T1F58 000:307 JLINK_IsHalted()  returns TRUE (0000ms, 0264ms total)
T1F58 000:307 JLINK_ReadMemU32(0xE000EDF0, 0x0001 Items, ...) -- CPU_ReadMem(4 bytes @ 0xE000EDF0) - Data: 03 00 03 00  returns 0x01 (0000ms, 0264ms total)
T1F58 000:307 JLINK_WriteU32(0xE000EDF0, 0xA05F0003) -- CPU_WriteMem(4 bytes @ 0xE000EDF0)  returns 0x00 (0001ms, 0265ms total)
T1F58 000:308 JLINK_WriteU32(0xE000EDFC, 0x01000000) -- CPU_WriteMem(4 bytes @ 0xE000EDFC)  returns 0x00 (0001ms, 0266ms total)
T1F58 000:334 JLINK_GetHWStatus(...)  returns 0x00 (0000ms, 0266ms total)
T1F58 000:350 JLINK_GetNumBPUnits(Type = 0xFFFFFF00)  returns 0x04 (0000ms, 0266ms total)
T1F58 000:350 JLINK_GetNumBPUnits(Type = 0xF0)  returns 0x2000 (0000ms, 0266ms total)
T1F58 000:350 JLINK_GetNumWPUnits()  returns 0x02 (0000ms, 0266ms total)
T1F58 000:366 JLINK_GetSpeed()  returns 0x1F4 (0000ms, 0266ms total)
T1F58 000:376 JLINK_ReadMemU32(0xE000E004, 0x0001 Items, ...) -- CPU_ReadMem(4 bytes @ 0xE000E004) - Data: 00 00 00 00  returns 0x01 (0001ms, 0267ms total)
T1F58 000:377 JLINK_Halt()  returns 0x00 (0000ms, 0267ms total)
T1F58 000:378 JLINK_IsHalted()  returns TRUE (0000ms, 0268ms total)
T1F58 000:384 JLINK_WriteMem(0x20000000, 0x00A0 Bytes, ...) - Data: 00 BE 0A E0 0D 78 2D 06 68 40 08 24 40 00 00 D3 ... -- CPU_WriteMem(160 bytes @ 0x20000000)  returns 0xA0 (0006ms, 0274ms total)
T1F58 000:390 JLINK_WriteReg(R0, 0x10001000)  returns 0x00 (0000ms, 0274ms total)
T1F58 000:390 JLINK_WriteReg(R1, 0x03D09000)  returns 0x00 (0000ms, 0274ms total)
T1F58 000:390 JLINK_WriteReg(R2, 0x00000001)  returns 0x00 (0000ms, 0274ms total)
T1F58 000:390 JLINK_WriteReg(R3, 0x00000000)  returns 0x00 (0000ms, 0274ms total)
T1F58 000:390 JLINK_WriteReg(R4, 0x00000000)  returns 0x00 (0000ms, 0274ms total)
T1F58 000:390 JLINK_WriteReg(R5, 0x00000000)  returns 0x00 (0000ms, 0274ms total)
T1F58 000:390 JLINK_WriteReg(R6, 0x00000000)  returns 0x00 (0000ms, 0274ms total)
T1F58 000:390 JLINK_WriteReg(R7, 0x00000000)  returns 0x00 (0000ms, 0274ms total)
T1F58 000:391 JLINK_WriteReg(R8, 0x00000000)  returns 0x00 (0000ms, 0275ms total)
T1F58 000:391 JLINK_WriteReg(R9, 0x20000098)  returns 0x00 (0000ms, 0275ms total)
T1F58 000:391 JLINK_WriteReg(R10, 0x00000000)  returns 0x00 (0000ms, 0275ms total)
T1F58 000:391 JLINK_WriteReg(R11, 0x00000000)  returns 0x00 (0000ms, 0275ms total)
T1F58 000:391 JLINK_WriteReg(R12, 0x00000000)  returns 0x00 (0000ms, 0275ms total)
T1F58 000:391 JLINK_WriteReg(R13 (SP), 0x20000800)  returns 0x00 (0000ms, 0275ms total)
T1F58 000:391 JLINK_WriteReg(R14, 0x20000001)  returns 0x00 (0000ms, 0275ms total)
T1F58 000:391 JLINK_WriteReg(R15 (PC), 0x20000038)  returns 0x00 (0000ms, 0275ms total)
T1F58 000:391 JLINK_WriteReg(XPSR, 0x01000000)  returns 0x00 (0000ms, 0275ms total)
T1F58 000:391 JLINK_WriteReg(MSP, 0x20000800)  returns 0x00 (0000ms, 0275ms total)
T1F58 000:391 JLINK_WriteReg(PSP, 0x20000800)  returns 0x00 (0000ms, 0275ms total)
T1F58 000:391 JLINK_WriteReg(CFBP, 0x00000000)  returns 0x00 (0000ms, 0275ms total)
T1F58 000:391 JLINK_SetBPEx(Addr = 0x20000000, Type = 0xFFFFFFF2) -- CPU_ReadMem(2 bytes @ 0x20000000)  returns 0x00000001 (0001ms, 0276ms total)
T1F58 000:392 JLINK_Go() -- CPU_WriteMem(2 bytes @ 0x20000000) -- CPU_ReadMem(4 bytes @ 0xE0001000) -- CPU_WriteMem(4 bytes @ 0xE0001000) -- CPU_WriteMem(4 bytes @ 0xE0002008) -- CPU_WriteMem(4 bytes @ 0xE000200C) -- CPU_WriteMem(4 bytes @ 0xE0002010) -- CPU_WriteMem(4 bytes @ 0xE0002014) -- CPU_WriteMem(4 bytes @ 0xE0001004) (0015ms, 0291ms total)
T1F58 000:407 JLINK_IsHalted() -- CPU_ReadMem(2 bytes @ 0x20000000)  returns TRUE (0012ms, 0303ms total)
T1F58 000:419 JLINK_ReadReg(R15 (PC))  returns 0x20000000 (0000ms, 0291ms total)
T1F58 000:419 JLINK_ClrBPEx(BPHandle = 0x00000001)  returns 0x00 (0000ms, 0291ms total)
T1F58 000:419 JLINK_ReadReg(R0)  returns 0x00000000 (0000ms, 0291ms total)
T1F58 000:420 JLINK_WriteReg(R0, 0x10001000)  returns 0x00 (0000ms, 0291ms total)
T1F58 000:420 JLINK_WriteReg(R1, 0x00001000)  returns 0x00 (0000ms, 0291ms total)
T1F58 000:420 JLINK_WriteReg(R2, 0x000000FF)  returns 0x00 (0000ms, 0291ms total)
T1F58 000:420 JLINK_WriteReg(R3, 0x00000000)  returns 0x00 (0000ms, 0291ms total)
T1F58 000:420 JLINK_WriteReg(R4, 0x00000000)  returns 0x00 (0000ms, 0291ms total)
T1F58 000:420 JLINK_WriteReg(R5, 0x00000000)  returns 0x00 (0000ms, 0291ms total)
T1F58 000:420 JLINK_WriteReg(R6, 0x00000000)  returns 0x00 (0000ms, 0291ms total)
T1F58 000:420 JLINK_WriteReg(R7, 0x00000000)  returns 0x00 (0000ms, 0291ms total)
T1F58 000:420 JLINK_WriteReg(R8, 0x00000000)  returns 0x00 (0000ms, 0291ms total)
T1F58 000:420 JLINK_WriteReg(R9, 0x20000098)  returns 0x00 (0000ms, 0291ms total)
T1F58 000:420 JLINK_WriteReg(R10, 0x00000000)  returns 0x00 (0000ms, 0291ms total)
T1F58 000:420 JLINK_WriteReg(R11, 0x00000000)  returns 0x00 (0000ms, 0291ms total)
T1F58 000:420 JLINK_WriteReg(R12, 0x00000000)  returns 0x00 (0000ms, 0291ms total)
T1F58 000:420 JLINK_WriteReg(R13 (SP), 0x20000800)  returns 0x00 (0000ms, 0291ms total)
T1F58 000:420 JLINK_WriteReg(R14, 0x20000001)  returns 0x00 (0001ms, 0292ms total)
T1F58 000:421 JLINK_WriteReg(R15 (PC), 0x20000020)  returns 0x00 (0000ms, 0292ms total)
T1F58 000:421 JLINK_WriteReg(XPSR, 0x01000000)  returns 0x00 (0000ms, 0292ms total)
T1F58 000:421 JLINK_WriteReg(MSP, 0x20000800)  returns 0x00 (0000ms, 0292ms total)
T1F58 000:421 JLINK_WriteReg(PSP, 0x20000800)  returns 0x00 (0000ms, 0292ms total)
T1F58 000:421 JLINK_WriteReg(CFBP, 0x00000000)  returns 0x00 (0000ms, 0292ms total)
T1F58 000:421 JLINK_SetBPEx(Addr = 0x20000000, Type = 0xFFFFFFF2)  returns 0x00000002 (0000ms, 0292ms total)
T1F58 000:421 JLINK_Go() -- CPU_ReadMem(4 bytes @ 0xE0001000) -- CPU_WriteMem(4 bytes @ 0xE0001000) (0006ms, 0298ms total)
T1F58 000:427 JLINK_IsHalted() -- CPU_ReadMem(2 bytes @ 0x20000000)  returns TRUE (0012ms, 0310ms total)
T1F58 000:439 JLINK_ReadReg(R15 (PC))  returns 0x20000000 (0000ms, 0298ms total)
T1F58 000:439 JLINK_ClrBPEx(BPHandle = 0x00000002)  returns 0x00 (0000ms, 0298ms total)
T1F58 000:439 JLINK_ReadReg(R0)  returns 0x00000001 (0000ms, 0298ms total)
T1F58 000:439 JLINK_WriteReg(R0, 0x10001000)  returns 0x00 (0000ms, 0298ms total)
T1F58 000:439 JLINK_WriteReg(R1, 0x00001000)  returns 0x00 (0000ms, 0298ms total)
T1F58 000:439 JLINK_WriteReg(R2, 0x000000FF)  returns 0x00 (0000ms, 0298ms total)
T1F58 000:439 JLINK_WriteReg(R3, 0x00000000)  returns 0x00 (0000ms, 0298ms total)
T1F58 000:439 JLINK_WriteReg(R4, 0x00000000)  returns 0x00 (0000ms, 0298ms total)
T1F58 000:439 JLINK_WriteReg(R5, 0x00000000)  returns 0x00 (0000ms, 0298ms total)
T1F58 000:439 JLINK_WriteReg(R6, 0x00000000)  returns 0x00 (0000ms, 0298ms total)
T1F58 000:439 JLINK_WriteReg(R7, 0x00000000)  returns 0x00 (0000ms, 0298ms total)
T1F58 000:439 JLINK_WriteReg(R8, 0x00000000)  returns 0x00 (0000ms, 0298ms total)
T1F58 000:439 JLINK_WriteReg(R9, 0x20000098)  returns 0x00 (0000ms, 0298ms total)
T1F58 000:439 JLINK_WriteReg(R10, 0x00000000)  returns 0x00 (0000ms, 0298ms total)
T1F58 000:439 JLINK_WriteReg(R11, 0x00000000)  returns 0x00 (0001ms, 0299ms total)
T1F58 000:440 JLINK_WriteReg(R12, 0x00000000)  returns 0x00 (0000ms, 0299ms total)
T1F58 000:440 JLINK_WriteReg(R13 (SP), 0x20000800)  returns 0x00 (0000ms, 0299ms total)
T1F58 000:440 JLINK_WriteReg(R14, 0x20000001)  returns 0x00 (0000ms, 0299ms total)
T1F58 000:440 JLINK_WriteReg(R15 (PC), 0x20000040)  returns 0x00 (0000ms, 0299ms total)
T1F58 000:440 JLINK_WriteReg(XPSR, 0x01000000)  returns 0x00 (0000ms, 0299ms total)
T1F58 000:440 JLINK_WriteReg(MSP, 0x20000800)  returns 0x00 (0000ms, 0299ms total)
T1F58 000:440 JLINK_WriteReg(PSP, 0x20000800)  returns 0x00 (0000ms, 0299ms total)
T1F58 000:440 JLINK_WriteReg(CFBP, 0x00000000)  returns 0x00 (0000ms, 0299ms total)
T1F58 000:440 JLINK_SetBPEx(Addr = 0x20000000, Type = 0xFFFFFFF2)  returns 0x00000003 (0000ms, 0299ms total)
T1F58 000:440 JLINK_Go() -- CPU_ReadMem(4 bytes @ 0xE0001000) -- CPU_WriteMem(4 bytes @ 0xE0001000) (0006ms, 0305ms total)
T1F58 000:446 JLINK_IsHalted()  returns FALSE (0001ms, 0306ms total)
T1F58 000:538 JLINK_IsHalted()  returns FALSE (0001ms, 0306ms total)
T1F58 000:540 JLINK_IsHalted()  returns FALSE (0001ms, 0306ms total)
T1F58 000:543 JLINK_IsHalted()  returns FALSE (0001ms, 0306ms total)
T1F58 000:546 JLINK_IsHalted()  returns FALSE (0000ms, 0305ms total)
T1F58 000:548 JLINK_IsHalted()  returns FALSE (0001ms, 0306ms total)
T1F58 000:550 JLINK_IsHalted()  returns FALSE (0001ms, 0306ms total)
T1F58 000:556 JLINK_IsHalted() -- CPU_ReadMem(2 bytes @ 0x20000000)  returns TRUE (0012ms, 0317ms total)
T1F58 000:568 JLINK_ReadReg(R15 (PC))  returns 0x20000000 (0000ms, 0305ms total)
T1F58 000:568 JLINK_ClrBPEx(BPHandle = 0x00000003)  returns 0x00 (0000ms, 0305ms total)
T1F58 000:568 JLINK_ReadReg(R0)  returns 0x00000000 (0000ms, 0305ms total)
T1F58 000:568 JLINK_WriteReg(R0, 0x10002000)  returns 0x00 (0000ms, 0305ms total)
T1F58 000:568 JLINK_WriteReg(R1, 0x00001000)  returns 0x00 (0000ms, 0305ms total)
T1F58 000:568 JLINK_WriteReg(R2, 0x000000FF)  returns 0x00 (0000ms, 0305ms total)
T1F58 000:568 JLINK_WriteReg(R3, 0x00000000)  returns 0x00 (0000ms, 0305ms total)
T1F58 000:568 JLINK_WriteReg(R4, 0x00000000)  returns 0x00 (0000ms, 0305ms total)
T1F58 000:568 JLINK_WriteReg(R5, 0x00000000)  returns 0x00 (0000ms, 0305ms total)
T1F58 000:568 JLINK_WriteReg(R6, 0x00000000)  returns 0x00 (0000ms, 0305ms total)
T1F58 000:568 JLINK_WriteReg(R7, 0x00000000)  returns 0x00 (0000ms, 0305ms total)
T1F58 000:568 JLINK_WriteReg(R8, 0x00000000)  returns 0x00 (0000ms, 0305ms total)
T1F58 000:568 JLINK_WriteReg(R9, 0x20000098)  returns 0x00 (0000ms, 0305ms total)
T1F58 000:568 JLINK_WriteReg(R10, 0x00000000)  returns 0x00 (0000ms, 0305ms total)
T1F58 000:568 JLINK_WriteReg(R11, 0x00000000)  returns 0x00 (0000ms, 0305ms total)
T1F58 000:568 JLINK_WriteReg(R12, 0x00000000)  returns 0x00 (0000ms, 0305ms total)
T1F58 000:568 JLINK_WriteReg(R13 (SP), 0x20000800)  returns 0x00 (0000ms, 0305ms total)
T1F58 000:568 JLINK_WriteReg(R14, 0x20000001)  returns 0x00 (0000ms, 0305ms total)
T1F58 000:568 JLINK_WriteReg(R15 (PC), 0x20000020)  returns 0x00 (0000ms, 0305ms total)
T1F58 000:569 JLINK_WriteReg(XPSR, 0x01000000)  returns 0x00 (0000ms, 0306ms total)
T1F58 000:569 JLINK_WriteReg(MSP, 0x20000800)  returns 0x00 (0000ms, 0306ms total)
T1F58 000:569 JLINK_WriteReg(PSP, 0x20000800)  returns 0x00 (0000ms, 0306ms total)
T1F58 000:569 JLINK_WriteReg(CFBP, 0x00000000)  returns 0x00 (0000ms, 0306ms total)
T1F58 000:569 JLINK_SetBPEx(Addr = 0x20000000, Type = 0xFFFFFFF2)  returns 0x00000004 (0000ms, 0306ms total)
T1F58 000:569 JLINK_Go() -- CPU_ReadMem(4 bytes @ 0xE0001000) -- CPU_WriteMem(4 bytes @ 0xE0001000) (0005ms, 0311ms total)
T1F58 000:574 JLINK_IsHalted() -- CPU_ReadMem(2 bytes @ 0x20000000)  returns TRUE (0012ms, 0323ms total)
T1F58 000:586 JLINK_ReadReg(R15 (PC))  returns 0x20000000 (0000ms, 0311ms total)
T1F58 000:586 JLINK_ClrBPEx(BPHandle = 0x00000004)  returns 0x00 (0000ms, 0311ms total)
T1F58 000:586 JLINK_ReadReg(R0)  returns 0x00000001 (0000ms, 0311ms total)
T1F58 000:586 JLINK_WriteReg(R0, 0x10002000)  returns 0x00 (0000ms, 0311ms total)
T1F58 000:586 JLINK_WriteReg(R1, 0x00001000)  returns 0x00 (0000ms, 0311ms total)
T1F58 000:586 JLINK_WriteReg(R2, 0x000000FF)  returns 0x00 (0000ms, 0311ms total)
T1F58 000:586 JLINK_WriteReg(R3, 0x00000000)  returns 0x00 (0000ms, 0311ms total)
T1F58 000:586 JLINK_WriteReg(R4, 0x00000000)  returns 0x00 (0000ms, 0311ms total)
T1F58 000:586 JLINK_WriteReg(R5, 0x00000000)  returns 0x00 (0000ms, 0311ms total)
T1F58 000:586 JLINK_WriteReg(R6, 0x00000000)  returns 0x00 (0000ms, 0311ms total)
T1F58 000:586 JLINK_WriteReg(R7, 0x00000000)  returns 0x00 (0001ms, 0312ms total)
T1F58 000:587 JLINK_WriteReg(R8, 0x00000000)  returns 0x00 (0000ms, 0312ms total)
T1F58 000:587 JLINK_WriteReg(R9, 0x20000098)  returns 0x00 (0000ms, 0312ms total)
T1F58 000:587 JLINK_WriteReg(R10, 0x00000000)  returns 0x00 (0000ms, 0312ms total)
T1F58 000:587 JLINK_WriteReg(R11, 0x00000000)  returns 0x00 (0000ms, 0312ms total)
T1F58 000:587 JLINK_WriteReg(R12, 0x00000000)  returns 0x00 (0000ms, 0312ms total)
T1F58 000:587 JLINK_WriteReg(R13 (SP), 0x20000800)  returns 0x00 (0000ms, 0312ms total)
T1F58 000:587 JLINK_WriteReg(R14, 0x20000001)  returns 0x00 (0000ms, 0312ms total)
T1F58 000:587 JLINK_WriteReg(R15 (PC), 0x20000040)  returns 0x00 (0000ms, 0312ms total)
T1F58 000:587 JLINK_WriteReg(XPSR, 0x01000000)  returns 0x00 (0000ms, 0312ms total)
T1F58 000:587 JLINK_WriteReg(MSP, 0x20000800)  returns 0x00 (0000ms, 0312ms total)
T1F58 000:587 JLINK_WriteReg(PSP, 0x20000800)  returns 0x00 (0000ms, 0312ms total)
T1F58 000:587 JLINK_WriteReg(CFBP, 0x00000000)  returns 0x00 (0000ms, 0312ms total)
T1F58 000:587 JLINK_SetBPEx(Addr = 0x20000000, Type = 0xFFFFFFF2)  returns 0x00000005 (0000ms, 0312ms total)
T1F58 000:587 JLINK_Go() -- CPU_ReadMem(4 bytes @ 0xE0001000) -- CPU_WriteMem(4 bytes @ 0xE0001000) (0005ms, 0317ms total)
T1F58 000:592 JLINK_IsHalted()  returns FALSE (0001ms, 0318ms total)
T1F58 000:598 JLINK_IsHalted()  returns FALSE (0001ms, 0318ms total)
T1F58 000:601 JLINK_IsHalted()  returns FALSE (0000ms, 0317ms total)
T1F58 000:606 JLINK_IsHalted()  returns FALSE (0000ms, 0317ms total)
T1F58 000:608 JLINK_IsHalted()  returns FALSE (0000ms, 0317ms total)
T1F58 000:610 JLINK_IsHalted()  returns FALSE (0001ms, 0318ms total)
T1F58 000:616 JLINK_IsHalted()  returns FALSE (0001ms, 0318ms total)
T1F58 000:618 JLINK_IsHalted()  returns FALSE (0001ms, 0318ms total)
T1F58 000:621 JLINK_IsHalted()  returns FALSE (0001ms, 0318ms total)
T1F58 000:623 JLINK_IsHalted()  returns FALSE (0001ms, 0318ms total)
T1F58 000:626 JLINK_IsHalted()  returns FALSE (0000ms, 0317ms total)
T1F58 000:632 JLINK_IsHalted()  returns FALSE (0000ms, 0317ms total)
T1F58 000:634 JLINK_IsHalted()  returns FALSE (0001ms, 0318ms total)
T1F58 000:637 JLINK_IsHalted()  returns FALSE (0001ms, 0318ms total)
T1F58 000:640 JLINK_IsHalted()  returns FALSE (0001ms, 0318ms total)
T1F58 000:642 JLINK_IsHalted()  returns FALSE (0001ms, 0318ms total)
T1F58 000:645 JLINK_IsHalted()  returns FALSE (0001ms, 0318ms total)
T1F58 000:654 JLINK_IsHalted()  returns FALSE (0001ms, 0318ms total)
T1F58 000:657 JLINK_IsHalted()  returns FALSE (0001ms, 0318ms total)
T1F58 000:668 JLINK_IsHalted()  returns FALSE (0001ms, 0318ms total)
T1F58 000:671 JLINK_IsHalted()  returns FALSE (0000ms, 0317ms total)
T1F58 000:677 JLINK_IsHalted()  returns FALSE (0001ms, 0318ms total)
T1F58 000:680 JLINK_IsHalted()  returns FALSE (0001ms, 0318ms total)
T1F58 000:683 JLINK_IsHalted()  returns FALSE (0000ms, 0317ms total)
T1F58 000:685 JLINK_IsHalted()  returns FALSE (0000ms, 0317ms total)
T1F58 000:687 JLINK_IsHalted()  returns FALSE (0000ms, 0317ms total)
T1F58 000:693 JLINK_IsHalted()  returns FALSE (0001ms, 0318ms total)
T1F58 000:696 JLINK_IsHalted()  returns FALSE (0000ms, 0317ms total)
T1F58 000:699 JLINK_IsHalted()  returns FALSE (0000ms, 0317ms total)
T1F58 000:701 JLINK_IsHalted() -- CPU_ReadMem(2 bytes @ 0x20000000)  returns TRUE (0012ms, 0329ms total)
T1F58 000:713 JLINK_ReadReg(R15 (PC))  returns 0x20000000 (0000ms, 0317ms total)
T1F58 000:713 JLINK_ClrBPEx(BPHandle = 0x00000005)  returns 0x00 (0000ms, 0317ms total)
T1F58 000:713 JLINK_ReadReg(R0)  returns 0x00000000 (0000ms, 0317ms total)
T1F58 000:714 JLINK_WriteReg(R0, 0x10003000)  returns 0x00 (0000ms, 0317ms total)
T1F58 000:714 JLINK_WriteReg(R1, 0x00001000)  returns 0x00 (0000ms, 0317ms total)
T1F58 000:714 JLINK_WriteReg(R2, 0x000000FF)  returns 0x00 (0000ms, 0317ms total)
T1F58 000:714 JLINK_WriteReg(R3, 0x00000000)  returns 0x00 (0000ms, 0317ms total)
T1F58 000:714 JLINK_WriteReg(R4, 0x00000000)  returns 0x00 (0000ms, 0317ms total)
T1F58 000:714 JLINK_WriteReg(R5, 0x00000000)  returns 0x00 (0000ms, 0317ms total)
T1F58 000:714 JLINK_WriteReg(R6, 0x00000000)  returns 0x00 (0000ms, 0317ms total)
T1F58 000:714 JLINK_WriteReg(R7, 0x00000000)  returns 0x00 (0000ms, 0317ms total)
T1F58 000:714 JLINK_WriteReg(R8, 0x00000000)  returns 0x00 (0000ms, 0317ms total)
T1F58 000:714 JLINK_WriteReg(R9, 0x20000098)  returns 0x00 (0000ms, 0317ms total)
T1F58 000:714 JLINK_WriteReg(R10, 0x00000000)  returns 0x00 (0000ms, 0317ms total)
T1F58 000:714 JLINK_WriteReg(R11, 0x00000000)  returns 0x00 (0000ms, 0317ms total)
T1F58 000:714 JLINK_WriteReg(R12, 0x00000000)  returns 0x00 (0000ms, 0317ms total)
T1F58 000:714 JLINK_WriteReg(R13 (SP), 0x20000800)  returns 0x00 (0000ms, 0317ms total)
T1F58 000:714 JLINK_WriteReg(R14, 0x20000001)  returns 0x00 (0000ms, 0317ms total)
T1F58 000:714 JLINK_WriteReg(R15 (PC), 0x20000020)  returns 0x00 (0000ms, 0317ms total)
T1F58 000:714 JLINK_WriteReg(XPSR, 0x01000000)  returns 0x00 (0000ms, 0317ms total)
T1F58 000:714 JLINK_WriteReg(MSP, 0x20000800)  returns 0x00 (0000ms, 0317ms total)
T1F58 000:714 JLINK_WriteReg(PSP, 0x20000800)  returns 0x00 (0000ms, 0317ms total)
T1F58 000:714 JLINK_WriteReg(CFBP, 0x00000000)  returns 0x00 (0000ms, 0317ms total)
T1F58 000:714 JLINK_SetBPEx(Addr = 0x20000000, Type = 0xFFFFFFF2)  returns 0x00000006 (0000ms, 0317ms total)
T1F58 000:714 JLINK_Go() -- CPU_ReadMem(4 bytes @ 0xE0001000) -- CPU_WriteMem(4 bytes @ 0xE0001000) (0006ms, 0323ms total)
T1F58 000:721 JLINK_IsHalted() -- CPU_ReadMem(2 bytes @ 0x20000000)  returns TRUE (0011ms, 0334ms total)
T1F58 000:732 JLINK_ReadReg(R15 (PC))  returns 0x20000000 (0000ms, 0323ms total)
T1F58 000:732 JLINK_ClrBPEx(BPHandle = 0x00000006)  returns 0x00 (0000ms, 0323ms total)
T1F58 000:732 JLINK_ReadReg(R0)  returns 0x00000001 (0000ms, 0323ms total)
T1F58 000:732 JLINK_WriteReg(R0, 0x10003000)  returns 0x00 (0000ms, 0323ms total)
T1F58 000:732 JLINK_WriteReg(R1, 0x00001000)  returns 0x00 (0001ms, 0324ms total)
T1F58 000:733 JLINK_WriteReg(R2, 0x000000FF)  returns 0x00 (0000ms, 0324ms total)
T1F58 000:733 JLINK_WriteReg(R3, 0x00000000)  returns 0x00 (0000ms, 0324ms total)
T1F58 000:733 JLINK_WriteReg(R4, 0x00000000)  returns 0x00 (0000ms, 0324ms total)
T1F58 000:733 JLINK_WriteReg(R5, 0x00000000)  returns 0x00 (0000ms, 0324ms total)
T1F58 000:733 JLINK_WriteReg(R6, 0x00000000)  returns 0x00 (0000ms, 0324ms total)
T1F58 000:733 JLINK_WriteReg(R7, 0x00000000)  returns 0x00 (0000ms, 0324ms total)
T1F58 000:733 JLINK_WriteReg(R8, 0x00000000)  returns 0x00 (0000ms, 0324ms total)
T1F58 000:733 JLINK_WriteReg(R9, 0x20000098)  returns 0x00 (0000ms, 0324ms total)
T1F58 000:733 JLINK_WriteReg(R10, 0x00000000)  returns 0x00 (0000ms, 0324ms total)
T1F58 000:733 JLINK_WriteReg(R11, 0x00000000)  returns 0x00 (0000ms, 0324ms total)
T1F58 000:733 JLINK_WriteReg(R12, 0x00000000)  returns 0x00 (0000ms, 0324ms total)
T1F58 000:733 JLINK_WriteReg(R13 (SP), 0x20000800)  returns 0x00 (0000ms, 0324ms total)
T1F58 000:733 JLINK_WriteReg(R14, 0x20000001)  returns 0x00 (0000ms, 0324ms total)
T1F58 000:733 JLINK_WriteReg(R15 (PC), 0x20000040)  returns 0x00 (0000ms, 0324ms total)
T1F58 000:733 JLINK_WriteReg(XPSR, 0x01000000)  returns 0x00 (0000ms, 0324ms total)
T1F58 000:733 JLINK_WriteReg(MSP, 0x20000800)  returns 0x00 (0000ms, 0324ms total)
T1F58 000:733 JLINK_WriteReg(PSP, 0x20000800)  returns 0x00 (0000ms, 0324ms total)
T1F58 000:733 JLINK_WriteReg(CFBP, 0x00000000)  returns 0x00 (0000ms, 0324ms total)
T1F58 000:733 JLINK_SetBPEx(Addr = 0x20000000, Type = 0xFFFFFFF2)  returns 0x00000007 (0000ms, 0324ms total)
T1F58 000:733 JLINK_Go() -- CPU_ReadMem(4 bytes @ 0xE0001000) -- CPU_WriteMem(4 bytes @ 0xE0001000) (0006ms, 0330ms total)
T1F58 000:739 JLINK_IsHalted()  returns FALSE (0001ms, 0331ms total)
T1F58 000:750 JLINK_IsHalted()  returns FALSE (0001ms, 0331ms total)
T1F58 000:759 JLINK_IsHalted()  returns FALSE (0001ms, 0331ms total)
T1F58 000:761 JLINK_IsHalted()  returns FALSE (0001ms, 0331ms total)
T1F58 000:764 JLINK_IsHalted()  returns FALSE (0001ms, 0331ms total)
T1F58 000:767 JLINK_IsHalted()  returns FALSE (0000ms, 0330ms total)
T1F58 000:769 JLINK_IsHalted()  returns FALSE (0001ms, 0331ms total)
T1F58 000:771 JLINK_IsHalted()  returns FALSE (0001ms, 0331ms total)
T1F58 000:777 JLINK_IsHalted()  returns FALSE (0001ms, 0331ms total)
T1F58 000:780 JLINK_IsHalted()  returns FALSE (0001ms, 0331ms total)
T1F58 000:782 JLINK_IsHalted()  returns FALSE (0001ms, 0331ms total)
T1F58 000:790 JLINK_IsHalted()  returns FALSE (0001ms, 0331ms total)
T1F58 000:793 JLINK_IsHalted()  returns FALSE (0001ms, 0331ms total)
T1F58 000:795 JLINK_IsHalted()  returns FALSE (0001ms, 0331ms total)
T1F58 000:798 JLINK_IsHalted()  returns FALSE (0001ms, 0331ms total)
T1F58 000:801 JLINK_IsHalted()  returns FALSE (0001ms, 0331ms total)
T1F58 000:809 JLINK_IsHalted()  returns FALSE (0001ms, 0331ms total)
T1F58 000:812 JLINK_IsHalted()  returns FALSE (0001ms, 0331ms total)
T1F58 000:820 JLINK_IsHalted()  returns FALSE (0001ms, 0331ms total)
T1F58 000:822 JLINK_IsHalted()  returns FALSE (0001ms, 0331ms total)
T1F58 000:826 JLINK_IsHalted()  returns FALSE (0001ms, 0331ms total)
T1F58 000:828 JLINK_IsHalted()  returns FALSE (0001ms, 0331ms total)
T1F58 000:836 JLINK_IsHalted()  returns FALSE (0001ms, 0331ms total)
T1F58 000:839 JLINK_IsHalted()  returns FALSE (0000ms, 0330ms total)
T1F58 000:841 JLINK_IsHalted()  returns FALSE (0001ms, 0331ms total)
T1F58 000:844 JLINK_IsHalted()  returns FALSE (0000ms, 0330ms total)
T1F58 000:846 JLINK_IsHalted()  returns FALSE (0001ms, 0331ms total)
T1F58 000:858 JLINK_IsHalted() -- CPU_ReadMem(2 bytes @ 0x20000000)  returns TRUE (0012ms, 0342ms total)
T1F58 000:870 JLINK_ReadReg(R15 (PC))  returns 0x20000000 (0000ms, 0330ms total)
T1F58 000:870 JLINK_ClrBPEx(BPHandle = 0x00000007)  returns 0x00 (0000ms, 0330ms total)
T1F58 000:870 JLINK_ReadReg(R0)  returns 0x00000000 (0000ms, 0330ms total)
T1F58 000:871 JLINK_WriteReg(R0, 0x10004000)  returns 0x00 (0000ms, 0330ms total)
T1F58 000:871 JLINK_WriteReg(R1, 0x00001000)  returns 0x00 (0000ms, 0330ms total)
T1F58 000:871 JLINK_WriteReg(R2, 0x000000FF)  returns 0x00 (0000ms, 0330ms total)
T1F58 000:871 JLINK_WriteReg(R3, 0x00000000)  returns 0x00 (0000ms, 0330ms total)
T1F58 000:871 JLINK_WriteReg(R4, 0x00000000)  returns 0x00 (0000ms, 0330ms total)
T1F58 000:871 JLINK_WriteReg(R5, 0x00000000)  returns 0x00 (0000ms, 0330ms total)
T1F58 000:871 JLINK_WriteReg(R6, 0x00000000)  returns 0x00 (0000ms, 0330ms total)
T1F58 000:871 JLINK_WriteReg(R7, 0x00000000)  returns 0x00 (0000ms, 0330ms total)
T1F58 000:871 JLINK_WriteReg(R8, 0x00000000)  returns 0x00 (0000ms, 0330ms total)
T1F58 000:871 JLINK_WriteReg(R9, 0x20000098)  returns 0x00 (0001ms, 0331ms total)
T1F58 000:872 JLINK_WriteReg(R10, 0x00000000)  returns 0x00 (0000ms, 0331ms total)
T1F58 000:872 JLINK_WriteReg(R11, 0x00000000)  returns 0x00 (0000ms, 0331ms total)
T1F58 000:872 JLINK_WriteReg(R12, 0x00000000)  returns 0x00 (0000ms, 0331ms total)
T1F58 000:872 JLINK_WriteReg(R13 (SP), 0x20000800)  returns 0x00 (0000ms, 0331ms total)
T1F58 000:872 JLINK_WriteReg(R14, 0x20000001)  returns 0x00 (0000ms, 0331ms total)
T1F58 000:872 JLINK_WriteReg(R15 (PC), 0x20000020)  returns 0x00 (0000ms, 0331ms total)
T1F58 000:872 JLINK_WriteReg(XPSR, 0x01000000)  returns 0x00 (0000ms, 0331ms total)
T1F58 000:872 JLINK_WriteReg(MSP, 0x20000800)  returns 0x00 (0000ms, 0331ms total)
T1F58 000:872 JLINK_WriteReg(PSP, 0x20000800)  returns 0x00 (0000ms, 0331ms total)
T1F58 000:872 JLINK_WriteReg(CFBP, 0x00000000)  returns 0x00 (0000ms, 0331ms total)
T1F58 000:872 JLINK_SetBPEx(Addr = 0x20000000, Type = 0xFFFFFFF2)  returns 0x00000008 (0000ms, 0331ms total)
T1F58 000:872 JLINK_Go() -- CPU_ReadMem(4 bytes @ 0xE0001000) -- CPU_WriteMem(4 bytes @ 0xE0001000) (0006ms, 0337ms total)
T1F58 000:878 JLINK_IsHalted() -- CPU_ReadMem(2 bytes @ 0x20000000)  returns TRUE (0012ms, 0349ms total)
T1F58 000:890 JLINK_ReadReg(R15 (PC))  returns 0x20000000 (0001ms, 0338ms total)
T1F58 000:891 JLINK_ClrBPEx(BPHandle = 0x00000008)  returns 0x00 (0000ms, 0338ms total)
T1F58 000:891 JLINK_ReadReg(R0)  returns 0x00000001 (0000ms, 0338ms total)
T1F58 000:891 JLINK_WriteReg(R0, 0x10004000)  returns 0x00 (0000ms, 0338ms total)
T1F58 000:891 JLINK_WriteReg(R1, 0x00001000)  returns 0x00 (0000ms, 0338ms total)
T1F58 000:891 JLINK_WriteReg(R2, 0x000000FF)  returns 0x00 (0000ms, 0338ms total)
T1F58 000:891 JLINK_WriteReg(R3, 0x00000000)  returns 0x00 (0000ms, 0338ms total)
T1F58 000:891 JLINK_WriteReg(R4, 0x00000000)  returns 0x00 (0000ms, 0338ms total)
T1F58 000:891 JLINK_WriteReg(R5, 0x00000000)  returns 0x00 (0000ms, 0338ms total)
T1F58 000:891 JLINK_WriteReg(R6, 0x00000000)  returns 0x00 (0000ms, 0338ms total)
T1F58 000:891 JLINK_WriteReg(R7, 0x00000000)  returns 0x00 (0000ms, 0338ms total)
T1F58 000:891 JLINK_WriteReg(R8, 0x00000000)  returns 0x00 (0000ms, 0338ms total)
T1F58 000:891 JLINK_WriteReg(R9, 0x20000098)  returns 0x00 (0000ms, 0338ms total)
T1F58 000:891 JLINK_WriteReg(R10, 0x00000000)  returns 0x00 (0000ms, 0338ms total)
T1F58 000:891 JLINK_WriteReg(R11, 0x00000000)  returns 0x00 (0000ms, 0338ms total)
T1F58 000:891 JLINK_WriteReg(R12, 0x00000000)  returns 0x00 (0000ms, 0338ms total)
T1F58 000:891 JLINK_WriteReg(R13 (SP), 0x20000800)  returns 0x00 (0000ms, 0338ms total)
T1F58 000:891 JLINK_WriteReg(R14, 0x20000001)  returns 0x00 (0000ms, 0338ms total)
T1F58 000:891 JLINK_WriteReg(R15 (PC), 0x20000040)  returns 0x00 (0000ms, 0338ms total)
T1F58 000:891 JLINK_WriteReg(XPSR, 0x01000000)  returns 0x00 (0000ms, 0338ms total)
T1F58 000:891 JLINK_WriteReg(MSP, 0x20000800)  returns 0x00 (0000ms, 0338ms total)
T1F58 000:891 JLINK_WriteReg(PSP, 0x20000800)  returns 0x00 (0000ms, 0338ms total)
T1F58 000:891 JLINK_WriteReg(CFBP, 0x00000000)  returns 0x00 (0000ms, 0338ms total)
T1F58 000:891 JLINK_SetBPEx(Addr = 0x20000000, Type = 0xFFFFFFF2)  returns 0x00000009 (0000ms, 0338ms total)
T1F58 000:891 JLINK_Go() -- CPU_ReadMem(4 bytes @ 0xE0001000) -- CPU_WriteMem(4 bytes @ 0xE0001000) (0006ms, 0344ms total)
T1F58 000:897 JLINK_IsHalted()  returns FALSE (0001ms, 0345ms total)
T1F58 000:906 JLINK_IsHalted()  returns FALSE (0001ms, 0345ms total)
T1F58 000:921 JLINK_IsHalted()  returns FALSE (0001ms, 0345ms total)
T1F58 000:923 JLINK_IsHalted()  returns FALSE (0001ms, 0345ms total)
T1F58 000:926 JLINK_IsHalted()  returns FALSE (0001ms, 0345ms total)
T1F58 000:934 JLINK_IsHalted()  returns FALSE (0001ms, 0345ms total)
T1F58 000:937 JLINK_IsHalted()  returns FALSE (0001ms, 0345ms total)
T1F58 000:940 JLINK_IsHalted()  returns FALSE (0000ms, 0344ms total)
T1F58 000:942 JLINK_IsHalted()  returns FALSE (0001ms, 0345ms total)
T1F58 000:945 JLINK_IsHalted()  returns FALSE (0001ms, 0345ms total)
T1F58 000:962 JLINK_IsHalted()  returns FALSE (0001ms, 0345ms total)
T1F58 000:965 JLINK_IsHalted()  returns FALSE (0001ms, 0345ms total)
T1F58 000:968 JLINK_IsHalted()  returns FALSE (0001ms, 0345ms total)
T1F58 000:970 JLINK_IsHalted()  returns FALSE (0001ms, 0345ms total)
T1F58 000:973 JLINK_IsHalted()  returns FALSE (0001ms, 0345ms total)
T1F58 000:980 JLINK_IsHalted()  returns FALSE (0001ms, 0345ms total)
T1F58 000:983 JLINK_IsHalted()  returns FALSE (0001ms, 0345ms total)
T1F58 000:990 JLINK_IsHalted()  returns FALSE (0001ms, 0345ms total)
T1F58 000:992 JLINK_IsHalted()  returns FALSE (0001ms, 0345ms total)
T1F58 000:995 JLINK_IsHalted()  returns FALSE (0001ms, 0345ms total)
T1F58 000:998 JLINK_IsHalted()  returns FALSE (0001ms, 0345ms total)
T1F58 001:001 JLINK_IsHalted()  returns FALSE (0001ms, 0345ms total)
T1F58 001:003 JLINK_IsHalted()  returns FALSE (0001ms, 0345ms total)
T1F58 001:011 JLINK_IsHalted() -- CPU_ReadMem(2 bytes @ 0x20000000)  returns TRUE (0011ms, 0355ms total)
T1F58 001:022 JLINK_ReadReg(R15 (PC))  returns 0x20000000 (0000ms, 0344ms total)
T1F58 001:022 JLINK_ClrBPEx(BPHandle = 0x00000009)  returns 0x00 (0000ms, 0344ms total)
T1F58 001:022 JLINK_ReadReg(R0)  returns 0x00000000 (0000ms, 0344ms total)
T1F58 001:023 JLINK_WriteReg(R0, 0x00000001)  returns 0x00 (0000ms, 0344ms total)
T1F58 001:023 JLINK_WriteReg(R1, 0x00001000)  returns 0x00 (0000ms, 0344ms total)
T1F58 001:023 JLINK_WriteReg(R2, 0x000000FF)  returns 0x00 (0000ms, 0344ms total)
T1F58 001:023 JLINK_WriteReg(R3, 0x00000000)  returns 0x00 (0000ms, 0344ms total)
T1F58 001:023 JLINK_WriteReg(R4, 0x00000000)  returns 0x00 (0000ms, 0344ms total)
T1F58 001:023 JLINK_WriteReg(R5, 0x00000000)  returns 0x00 (0001ms, 0345ms total)
T1F58 001:024 JLINK_WriteReg(R6, 0x00000000)  returns 0x00 (0000ms, 0345ms total)
T1F58 001:024 JLINK_WriteReg(R7, 0x00000000)  returns 0x00 (0000ms, 0345ms total)
T1F58 001:024 JLINK_WriteReg(R8, 0x00000000)  returns 0x00 (0000ms, 0345ms total)
T1F58 001:024 JLINK_WriteReg(R9, 0x20000098)  returns 0x00 (0000ms, 0345ms total)
T1F58 001:024 JLINK_WriteReg(R10, 0x00000000)  returns 0x00 (0000ms, 0345ms total)
T1F58 001:024 JLINK_WriteReg(R11, 0x00000000)  returns 0x00 (0000ms, 0345ms total)
T1F58 001:024 JLINK_WriteReg(R12, 0x00000000)  returns 0x00 (0000ms, 0345ms total)
T1F58 001:024 JLINK_WriteReg(R13 (SP), 0x20000800)  returns 0x00 (0000ms, 0345ms total)
T1F58 001:024 JLINK_WriteReg(R14, 0x20000001)  returns 0x00 (0000ms, 0345ms total)
T1F58 001:024 JLINK_WriteReg(R15 (PC), 0x2000003C)  returns 0x00 (0000ms, 0345ms total)
T1F58 001:024 JLINK_WriteReg(XPSR, 0x01000000)  returns 0x00 (0000ms, 0345ms total)
T1F58 001:024 JLINK_WriteReg(MSP, 0x20000800)  returns 0x00 (0000ms, 0345ms total)
T1F58 001:024 JLINK_WriteReg(PSP, 0x20000800)  returns 0x00 (0000ms, 0345ms total)
T1F58 001:024 JLINK_WriteReg(CFBP, 0x00000000)  returns 0x00 (0000ms, 0345ms total)
T1F58 001:024 JLINK_SetBPEx(Addr = 0x20000000, Type = 0xFFFFFFF2)  returns 0x0000000A (0000ms, 0345ms total)
T1F58 001:024 JLINK_Go() -- CPU_ReadMem(4 bytes @ 0xE0001000) -- CPU_WriteMem(4 bytes @ 0xE0001000) (0006ms, 0351ms total)
T1F58 001:030 JLINK_IsHalted() -- CPU_ReadMem(2 bytes @ 0x20000000)  returns TRUE (0012ms, 0363ms total)
T1F58 001:042 JLINK_ReadReg(R15 (PC))  returns 0x20000000 (0000ms, 0351ms total)
T1F58 001:042 JLINK_ClrBPEx(BPHandle = 0x0000000A)  returns 0x00 (0000ms, 0351ms total)
T1F58 001:042 JLINK_ReadReg(R0)  returns 0x00000000 (0000ms, 0351ms total)
T1F58 001:107 JLINK_WriteMem(0x20000000, 0x00A0 Bytes, ...) - Data: 00 BE 0A E0 0D 78 2D 06 68 40 08 24 40 00 00 D3 ... -- CPU_WriteMem(160 bytes @ 0x20000000)  returns 0xA0 (0006ms, 0357ms total)
T1F58 001:113 JLINK_WriteReg(R0, 0x10001000)  returns 0x00 (0000ms, 0357ms total)
T1F58 001:113 JLINK_WriteReg(R1, 0x03D09000)  returns 0x00 (0000ms, 0357ms total)
T1F58 001:113 JLINK_WriteReg(R2, 0x00000002)  returns 0x00 (0000ms, 0357ms total)
T1F58 001:113 JLINK_WriteReg(R3, 0x00000000)  returns 0x00 (0000ms, 0357ms total)
T1F58 001:113 JLINK_WriteReg(R4, 0x00000000)  returns 0x00 (0000ms, 0357ms total)
T1F58 001:113 JLINK_WriteReg(R5, 0x00000000)  returns 0x00 (0000ms, 0357ms total)
T1F58 001:113 JLINK_WriteReg(R6, 0x00000000)  returns 0x00 (0000ms, 0357ms total)
T1F58 001:113 JLINK_WriteReg(R7, 0x00000000)  returns 0x00 (0000ms, 0357ms total)
T1F58 001:113 JLINK_WriteReg(R8, 0x00000000)  returns 0x00 (0000ms, 0357ms total)
T1F58 001:113 JLINK_WriteReg(R9, 0x20000098)  returns 0x00 (0000ms, 0357ms total)
T1F58 001:113 JLINK_WriteReg(R10, 0x00000000)  returns 0x00 (0000ms, 0357ms total)
T1F58 001:113 JLINK_WriteReg(R11, 0x00000000)  returns 0x00 (0000ms, 0357ms total)
T1F58 001:113 JLINK_WriteReg(R12, 0x00000000)  returns 0x00 (0001ms, 0358ms total)
T1F58 001:114 JLINK_WriteReg(R13 (SP), 0x20000800)  returns 0x00 (0000ms, 0358ms total)
T1F58 001:114 JLINK_WriteReg(R14, 0x20000001)  returns 0x00 (0000ms, 0358ms total)
T1F58 001:114 JLINK_WriteReg(R15 (PC), 0x20000038)  returns 0x00 (0000ms, 0358ms total)
T1F58 001:114 JLINK_WriteReg(XPSR, 0x01000000)  returns 0x00 (0000ms, 0358ms total)
T1F58 001:114 JLINK_WriteReg(MSP, 0x20000800)  returns 0x00 (0000ms, 0358ms total)
T1F58 001:114 JLINK_WriteReg(PSP, 0x20000800)  returns 0x00 (0000ms, 0358ms total)
T1F58 001:114 JLINK_WriteReg(CFBP, 0x00000000)  returns 0x00 (0000ms, 0358ms total)
T1F58 001:114 JLINK_SetBPEx(Addr = 0x20000000, Type = 0xFFFFFFF2) -- CPU_ReadMem(2 bytes @ 0x20000000)  returns 0x0000000B (0001ms, 0359ms total)
T1F58 001:115 JLINK_Go() -- CPU_WriteMem(2 bytes @ 0x20000000) -- CPU_ReadMem(4 bytes @ 0xE0001000) -- CPU_WriteMem(4 bytes @ 0xE0001000) (0007ms, 0366ms total)
T1F58 001:122 JLINK_IsHalted() -- CPU_ReadMem(2 bytes @ 0x20000000)  returns TRUE (0012ms, 0378ms total)
T1F58 001:134 JLINK_ReadReg(R15 (PC))  returns 0x20000000 (0000ms, 0366ms total)
T1F58 001:134 JLINK_ClrBPEx(BPHandle = 0x0000000B)  returns 0x00 (0000ms, 0366ms total)
T1F58 001:134 JLINK_ReadReg(R0)  returns 0x00000000 (0000ms, 0366ms total)
T1F58 001:134 JLINK_WriteMem(0x200000A0, 0x0100 Bytes, ...) - Data: D8 1A 00 20 A1 10 00 10 00 00 00 00 00 00 00 00 ... -- CPU_WriteMem(256 bytes @ 0x200000A0)  returns 0x100 (0008ms, 0374ms total)
T1F58 001:142 JLINK_WriteReg(R0, 0x10001000)  returns 0x00 (0000ms, 0374ms total)
T1F58 001:142 JLINK_WriteReg(R1, 0x00000100)  returns 0x00 (0000ms, 0374ms total)
T1F58 001:142 JLINK_WriteReg(R2, 0x200000A0)  returns 0x00 (0000ms, 0374ms total)
T1F58 001:142 JLINK_WriteReg(R3, 0x00000000)  returns 0x00 (0000ms, 0374ms total)
T1F58 001:142 JLINK_WriteReg(R4, 0x00000000)  returns 0x00 (0000ms, 0374ms total)
T1F58 001:142 JLINK_WriteReg(R5, 0x00000000)  returns 0x00 (0000ms, 0374ms total)
T1F58 001:142 JLINK_WriteReg(R6, 0x00000000)  returns 0x00 (0000ms, 0374ms total)
T1F58 001:142 JLINK_WriteReg(R7, 0x00000000)  returns 0x00 (0000ms, 0374ms total)
T1F58 001:142 JLINK_WriteReg(R8, 0x00000000)  returns 0x00 (0000ms, 0374ms total)
T1F58 001:142 JLINK_WriteReg(R9, 0x20000098)  returns 0x00 (0000ms, 0374ms total)
T1F58 001:142 JLINK_WriteReg(R10, 0x00000000)  returns 0x00 (0000ms, 0374ms total)
T1F58 001:142 JLINK_WriteReg(R11, 0x00000000)  returns 0x00 (0000ms, 0374ms total)
T1F58 001:142 JLINK_WriteReg(R12, 0x00000000)  returns 0x00 (0001ms, 0375ms total)
T1F58 001:143 JLINK_WriteReg(R13 (SP), 0x20000800)  returns 0x00 (0000ms, 0375ms total)
T1F58 001:143 JLINK_WriteReg(R14, 0x20000001)  returns 0x00 (0000ms, 0375ms total)
T1F58 001:143 JLINK_WriteReg(R15 (PC), 0x20000070)  returns 0x00 (0000ms, 0375ms total)
T1F58 001:143 JLINK_WriteReg(XPSR, 0x01000000)  returns 0x00 (0000ms, 0375ms total)
T1F58 001:143 JLINK_WriteReg(MSP, 0x20000800)  returns 0x00 (0000ms, 0375ms total)
T1F58 001:143 JLINK_WriteReg(PSP, 0x20000800)  returns 0x00 (0000ms, 0375ms total)
T1F58 001:143 JLINK_WriteReg(CFBP, 0x00000000)  returns 0x00 (0000ms, 0375ms total)
T1F58 001:143 JLINK_SetBPEx(Addr = 0x20000000, Type = 0xFFFFFFF2)  returns 0x0000000C (0000ms, 0375ms total)
T1F58 001:143 JLINK_Go() -- CPU_ReadMem(4 bytes @ 0xE0001000) -- CPU_WriteMem(4 bytes @ 0xE0001000) (0006ms, 0381ms total)
T1F58 001:149 JLINK_IsHalted()  returns FALSE (0001ms, 0382ms total)
T1F58 001:168 JLINK_IsHalted() -- CPU_ReadMem(2 bytes @ 0x20000000)  returns TRUE (0012ms, 0393ms total)
T1F58 001:180 JLINK_ReadReg(R15 (PC))  returns 0x20000000 (0001ms, 0382ms total)
T1F58 001:181 JLINK_ClrBPEx(BPHandle = 0x0000000C)  returns 0x00 (0000ms, 0382ms total)
T1F58 001:181 JLINK_ReadReg(R0)  returns 0x00000000 (0000ms, 0382ms total)
T1F58 001:182 JLINK_WriteMem(0x200000A0, 0x0100 Bytes, ...) - Data: D8 16 00 20 D8 16 00 20 10 B5 FF F7 E1 FF 10 BD ... -- CPU_WriteMem(256 bytes @ 0x200000A0)  returns 0x100 (0007ms, 0389ms total)
T1F58 001:189 JLINK_WriteReg(R0, 0x10001100)  returns 0x00 (0000ms, 0389ms total)
T1F58 001:189 JLINK_WriteReg(R1, 0x00000100)  returns 0x00 (0000ms, 0389ms total)
T1F58 001:189 JLINK_WriteReg(R2, 0x200000A0)  returns 0x00 (0000ms, 0389ms total)
T1F58 001:190 JLINK_WriteReg(R3, 0x00000000)  returns 0x00 (0000ms, 0389ms total)
T1F58 001:190 JLINK_WriteReg(R4, 0x00000000)  returns 0x00 (0000ms, 0389ms total)
T1F58 001:190 JLINK_WriteReg(R5, 0x00000000)  returns 0x00 (0000ms, 0389ms total)
T1F58 001:190 JLINK_WriteReg(R6, 0x00000000)  returns 0x00 (0000ms, 0389ms total)
T1F58 001:190 JLINK_WriteReg(R7, 0x00000000)  returns 0x00 (0000ms, 0389ms total)
T1F58 001:190 JLINK_WriteReg(R8, 0x00000000)  returns 0x00 (0000ms, 0389ms total)
T1F58 001:190 JLINK_WriteReg(R9, 0x20000098)  returns 0x00 (0000ms, 0389ms total)
T1F58 001:190 JLINK_WriteReg(R10, 0x00000000)  returns 0x00 (0000ms, 0389ms total)
T1F58 001:190 JLINK_WriteReg(R11, 0x00000000)  returns 0x00 (0000ms, 0389ms total)
T1F58 001:190 JLINK_WriteReg(R12, 0x00000000)  returns 0x00 (0000ms, 0389ms total)
T1F58 001:190 JLINK_WriteReg(R13 (SP), 0x20000800)  returns 0x00 (0000ms, 0389ms total)
T1F58 001:190 JLINK_WriteReg(R14, 0x20000001)  returns 0x00 (0000ms, 0389ms total)
T1F58 001:190 JLINK_WriteReg(R15 (PC), 0x20000070)  returns 0x00 (0000ms, 0389ms total)
T1F58 001:190 JLINK_WriteReg(XPSR, 0x01000000)  returns 0x00 (0000ms, 0389ms total)
T1F58 001:190 JLINK_WriteReg(MSP, 0x20000800)  returns 0x00 (0000ms, 0389ms total)
T1F58 001:190 JLINK_WriteReg(PSP, 0x20000800)  returns 0x00 (0000ms, 0389ms total)
T1F58 001:190 JLINK_WriteReg(CFBP, 0x00000000)  returns 0x00 (0000ms, 0389ms total)
T1F58 001:190 JLINK_SetBPEx(Addr = 0x20000000, Type = 0xFFFFFFF2)  returns 0x0000000D (0000ms, 0389ms total)
T1F58 001:190 JLINK_Go() -- CPU_ReadMem(4 bytes @ 0xE0001000) -- CPU_WriteMem(4 bytes @ 0xE0001000) (0006ms, 0395ms total)
T1F58 001:196 JLINK_IsHalted()  returns FALSE (0001ms, 0396ms total)
T1F58 001:213 JLINK_IsHalted() -- CPU_ReadMem(2 bytes @ 0x20000000)  returns TRUE (0011ms, 0406ms total)
T1F58 001:225 JLINK_ReadReg(R15 (PC))  returns 0x20000000 (0000ms, 0395ms total)
T1F58 001:225 JLINK_ClrBPEx(BPHandle = 0x0000000D)  returns 0x00 (0000ms, 0395ms total)
T1F58 001:225 JLINK_ReadReg(R0)  returns 0x00000000 (0000ms, 0395ms total)
T1F58 001:226 JLINK_WriteMem(0x200000A0, 0x0100 Bytes, ...) - Data: 00 20 02 90 01 90 00 90 00 25 03 90 00 27 04 98 ... -- CPU_WriteMem(256 bytes @ 0x200000A0)  returns 0x100 (0008ms, 0403ms total)
T1F58 001:234 JLINK_WriteReg(R0, 0x10001200)  returns 0x00 (0000ms, 0403ms total)
T1F58 001:234 JLINK_WriteReg(R1, 0x00000100)  returns 0x00 (0000ms, 0403ms total)
T1F58 001:234 JLINK_WriteReg(R2, 0x200000A0)  returns 0x00 (0000ms, 0403ms total)
T1F58 001:235 JLINK_WriteReg(R3, 0x00000000)  returns 0x00 (0000ms, 0403ms total)
T1F58 001:235 JLINK_WriteReg(R4, 0x00000000)  returns 0x00 (0000ms, 0403ms total)
T1F58 001:235 JLINK_WriteReg(R5, 0x00000000)  returns 0x00 (0000ms, 0403ms total)
T1F58 001:235 JLINK_WriteReg(R6, 0x00000000)  returns 0x00 (0000ms, 0403ms total)
T1F58 001:235 JLINK_WriteReg(R7, 0x00000000)  returns 0x00 (0000ms, 0403ms total)
T1F58 001:235 JLINK_WriteReg(R8, 0x00000000)  returns 0x00 (0000ms, 0403ms total)
T1F58 001:235 JLINK_WriteReg(R9, 0x20000098)  returns 0x00 (0000ms, 0403ms total)
T1F58 001:235 JLINK_WriteReg(R10, 0x00000000)  returns 0x00 (0000ms, 0403ms total)
T1F58 001:235 JLINK_WriteReg(R11, 0x00000000)  returns 0x00 (0000ms, 0403ms total)
T1F58 001:235 JLINK_WriteReg(R12, 0x00000000)  returns 0x00 (0000ms, 0403ms total)
T1F58 001:235 JLINK_WriteReg(R13 (SP), 0x20000800)  returns 0x00 (0000ms, 0403ms total)
T1F58 001:235 JLINK_WriteReg(R14, 0x20000001)  returns 0x00 (0000ms, 0403ms total)
T1F58 001:235 JLINK_WriteReg(R15 (PC), 0x20000070)  returns 0x00 (0000ms, 0403ms total)
T1F58 001:235 JLINK_WriteReg(XPSR, 0x01000000)  returns 0x00 (0000ms, 0403ms total)
T1F58 001:235 JLINK_WriteReg(MSP, 0x20000800)  returns 0x00 (0000ms, 0403ms total)
T1F58 001:235 JLINK_WriteReg(PSP, 0x20000800)  returns 0x00 (0000ms, 0403ms total)
T1F58 001:235 JLINK_WriteReg(CFBP, 0x00000000)  returns 0x00 (0000ms, 0403ms total)
T1F58 001:235 JLINK_SetBPEx(Addr = 0x20000000, Type = 0xFFFFFFF2)  returns 0x0000000E (0000ms, 0403ms total)
T1F58 001:235 JLINK_Go() -- CPU_ReadMem(4 bytes @ 0xE0001000) -- CPU_WriteMem(4 bytes @ 0xE0001000) (0007ms, 0410ms total)
T1F58 001:242 JLINK_IsHalted()  returns FALSE (0001ms, 0411ms total)
T1F58 001:250 JLINK_IsHalted() -- CPU_ReadMem(2 bytes @ 0x20000000)  returns TRUE (0012ms, 0422ms total)
T1F58 001:262 JLINK_ReadReg(R15 (PC))  returns 0x20000000 (0000ms, 0410ms total)
T1F58 001:262 JLINK_ClrBPEx(BPHandle = 0x0000000E)  returns 0x00 (0000ms, 0410ms total)
T1F58 001:262 JLINK_ReadReg(R0)  returns 0x00000000 (0000ms, 0410ms total)
T1F58 001:263 JLINK_WriteMem(0x200000A0, 0x0100 Bytes, ...) - Data: 0B 20 02 90 14 E0 29 E1 13 E0 06 25 08 E0 38 46 ... -- CPU_WriteMem(256 bytes @ 0x200000A0)  returns 0x100 (0008ms, 0418ms total)
T1F58 001:271 JLINK_WriteReg(R0, 0x10001300)  returns 0x00 (0000ms, 0418ms total)
T1F58 001:271 JLINK_WriteReg(R1, 0x00000100)  returns 0x00 (0000ms, 0418ms total)
T1F58 001:271 JLINK_WriteReg(R2, 0x200000A0)  returns 0x00 (0000ms, 0418ms total)
T1F58 001:271 JLINK_WriteReg(R3, 0x00000000)  returns 0x00 (0000ms, 0418ms total)
T1F58 001:271 JLINK_WriteReg(R4, 0x00000000)  returns 0x00 (0000ms, 0418ms total)
T1F58 001:271 JLINK_WriteReg(R5, 0x00000000)  returns 0x00 (0000ms, 0418ms total)
T1F58 001:271 JLINK_WriteReg(R6, 0x00000000)  returns 0x00 (0000ms, 0418ms total)
T1F58 001:271 JLINK_WriteReg(R7, 0x00000000)  returns 0x00 (0000ms, 0418ms total)
T1F58 001:271 JLINK_WriteReg(R8, 0x00000000)  returns 0x00 (0000ms, 0418ms total)
T1F58 001:271 JLINK_WriteReg(R9, 0x20000098)  returns 0x00 (0000ms, 0418ms total)
T1F58 001:271 JLINK_WriteReg(R10, 0x00000000)  returns 0x00 (0000ms, 0418ms total)
T1F58 001:271 JLINK_WriteReg(R11, 0x00000000)  returns 0x00 (0000ms, 0418ms total)
T1F58 001:271 JLINK_WriteReg(R12, 0x00000000)  returns 0x00 (0000ms, 0418ms total)
T1F58 001:271 JLINK_WriteReg(R13 (SP), 0x20000800)  returns 0x00 (0000ms, 0418ms total)
T1F58 001:271 JLINK_WriteReg(R14, 0x20000001)  returns 0x00 (0001ms, 0419ms total)
T1F58 001:272 JLINK_WriteReg(R15 (PC), 0x20000070)  returns 0x00 (0000ms, 0419ms total)
T1F58 001:272 JLINK_WriteReg(XPSR, 0x01000000)  returns 0x00 (0000ms, 0419ms total)
T1F58 001:272 JLINK_WriteReg(MSP, 0x20000800)  returns 0x00 (0000ms, 0419ms total)
T1F58 001:272 JLINK_WriteReg(PSP, 0x20000800)  returns 0x00 (0000ms, 0419ms total)
T1F58 001:272 JLINK_WriteReg(CFBP, 0x00000000)  returns 0x00 (0000ms, 0419ms total)
T1F58 001:272 JLINK_SetBPEx(Addr = 0x20000000, Type = 0xFFFFFFF2)  returns 0x0000000F (0000ms, 0419ms total)
T1F58 001:272 JLINK_Go() -- CPU_ReadMem(4 bytes @ 0xE0001000) -- CPU_WriteMem(4 bytes @ 0xE0001000) (0007ms, 0426ms total)
T1F58 001:279 JLINK_IsHalted()  returns FALSE (0001ms, 0427ms total)
T1F58 001:308 JLINK_IsHalted() -- CPU_ReadMem(2 bytes @ 0x20000000)  returns TRUE (0012ms, 0438ms total)
T1F58 001:320 JLINK_ReadReg(R15 (PC))  returns 0x20000000 (0000ms, 0426ms total)
T1F58 001:320 JLINK_ClrBPEx(BPHandle = 0x0000000F)  returns 0x00 (0000ms, 0426ms total)
T1F58 001:320 JLINK_ReadReg(R0)  returns 0x00000000 (0000ms, 0426ms total)
T1F58 001:321 JLINK_WriteMem(0x200000A0, 0x0100 Bytes, ...) - Data: 13 E0 06 25 08 E0 38 46 79 1C CF B2 6C 49 08 5C ... -- CPU_WriteMem(256 bytes @ 0x200000A0)  returns 0x100 (0008ms, 0434ms total)
T1F58 001:329 JLINK_WriteReg(R0, 0x10001400)  returns 0x00 (0000ms, 0434ms total)
T1F58 001:329 JLINK_WriteReg(R1, 0x00000100)  returns 0x00 (0000ms, 0434ms total)
T1F58 001:329 JLINK_WriteReg(R2, 0x200000A0)  returns 0x00 (0000ms, 0434ms total)
T1F58 001:329 JLINK_WriteReg(R3, 0x00000000)  returns 0x00 (0000ms, 0434ms total)
T1F58 001:329 JLINK_WriteReg(R4, 0x00000000)  returns 0x00 (0000ms, 0434ms total)
T1F58 001:329 JLINK_WriteReg(R5, 0x00000000)  returns 0x00 (0000ms, 0434ms total)
T1F58 001:329 JLINK_WriteReg(R6, 0x00000000)  returns 0x00 (0000ms, 0434ms total)
T1F58 001:329 JLINK_WriteReg(R7, 0x00000000)  returns 0x00 (0000ms, 0434ms total)
T1F58 001:329 JLINK_WriteReg(R8, 0x00000000)  returns 0x00 (0000ms, 0434ms total)
T1F58 001:329 JLINK_WriteReg(R9, 0x20000098)  returns 0x00 (0000ms, 0434ms total)
T1F58 001:329 JLINK_WriteReg(R10, 0x00000000)  returns 0x00 (0000ms, 0434ms total)
T1F58 001:329 JLINK_WriteReg(R11, 0x00000000)  returns 0x00 (0000ms, 0434ms total)
T1F58 001:329 JLINK_WriteReg(R12, 0x00000000)  returns 0x00 (0000ms, 0434ms total)
T1F58 001:329 JLINK_WriteReg(R13 (SP), 0x20000800)  returns 0x00 (0000ms, 0434ms total)
T1F58 001:329 JLINK_WriteReg(R14, 0x20000001)  returns 0x00 (0000ms, 0434ms total)
T1F58 001:329 JLINK_WriteReg(R15 (PC), 0x20000070)  returns 0x00 (0000ms, 0434ms total)
T1F58 001:329 JLINK_WriteReg(XPSR, 0x01000000)  returns 0x00 (0000ms, 0434ms total)
